
T0718 000:316 SEGGER J-Link V5.02f Log File (0001ms, 0277ms total)
T0718 000:316 DLL Compiled: Oct  2 2015 20:51:34 (0001ms, 0277ms total)
T0718 000:316 Logging started @ 2018-01-11 10:38 (0001ms, 0277ms total)
T0718 000:317 JLINK_SetWarnOutHandler(...) (0000ms, 0277ms total)
T0718 000:317 JLINK_OpenEx(...)
Firmware: J-Link Lite-Cortex-M V8 compiled Sep 15 2016 12:05:01
Hardware: V8.00
S/N: 408000780  returns O.K. (0267ms, 0544ms total)
T0718 000:584 JLINK_SetErrorOutHandler(...) (0000ms, 0544ms total)
T0718 000:584 JLINK_ExecCommand("ProjectFile = "E:\ÑÐ¾¿Ä¿Â¼\soft\T9W_MCU_H3_RTOS_V0.40\nebula_mater_boot\MDK-ARM\JLinkSettings.ini"", ...)Device "UNSPECIFIED" selected.  returns 0x00 (0016ms, 0560ms total)
T0718 000:608 JLINK_ExecCommand("Device = STM32F401RETx", ...)Device "UNSPECIFIED" selected.  returns 0x00 (0014ms, 0574ms total)
T0718 000:622 JLINK_ExecCommand("DisableConnectionTimeout", ...)  returns 0x01 (0000ms, 0574ms total)
T0718 000:622 JLINK_GetHardwareVersion()  returns 0x13880 (0000ms, 0574ms total)
T0718 000:622 JLINK_GetDLLVersion()  returns 50206 (0000ms, 0574ms total)
T0718 000:622 JLINK_GetFirmwareString(...) (0000ms, 0574ms total)
T0718 000:638 JLINK_GetDLLVersion()  returns 50206 (0000ms, 0574ms total)
T0718 000:638 JLINK_GetCompileDateTime() (0000ms, 0574ms total)
T0718 000:657 JLINK_GetFirmwareString(...) (0000ms, 0574ms total)
T0718 000:666 JLINK_GetHardwareVersion()  returns 0x13880 (0000ms, 0574ms total)
T0718 000:694 JLINK_TIF_Select(JLINKARM_TIF_SWD)  returns 0x00 (0003ms, 0577ms total)
T0718 000:697 JLINK_SetSpeed(5000) (0001ms, 0578ms total)
T0718 000:698 JLINK_GetId() >0x108 TIF>Found SWD-DP with ID 0x2BA01477 >0x0D TIF> >0x21 TIF> >0x0D TIF> >0x28 TIF> >0x0D TIF> >0x28 TIF> >0x0D TIF> >0x21 TIF> >0x0D TIF> >0x28 TIF> >0x0D TIF> >0x21 TIF> >0x0D TIF> >0x21 TIF> >0x0D TIF> >0x21 TIF> >0x0D TIF> >0x21 TIF> >0x0D TIF> >0x28 TIF> >0x0D TIF> >0x28 TIF> >0x0D TIF> >0x21 TIF> >0x0D TIF> >0x28 TIF> >0x0D TIF> >0x28 TIF> >0x0D TIF> >0x28 TIF> >0x0D TIF> >0x21 TIF> >0x0D TIF> >0x21 TIF> >0x0D TIF> >0x28 TIF> >0x0D TIF> >0x21 TIF> >0x0D TIF>
 >0x21 TIF>Found Cortex-M4 r0p1, Little endian. -- CPU_ReadMem(4 bytes @ 0xE000EDF0) -- CPU_ReadMem(4 bytes @ 0xE0002000)FPUnit: 6 code (BP) slots and 2 literal slots -- CPU_ReadMem(4 bytes @ 0xE000EDFC) -- CPU_ReadMem(4 bytes @ 0xE0001000) -- CPU_WriteMem(4 bytes @ 0xE0001000) -- CPU_ReadMem(4 bytes @ 0xE000ED88) -- CPU_WriteMem(4 bytes @ 0xE000ED88) -- CPU_ReadMem(4 bytes @ 0xE000ED88) -- CPU_WriteMem(4 bytes @ 0xE000ED88)CoreSight components:ROMTbl 0 @ E00FF000 -- CPU_ReadMem(16 bytes @ 0xE00FF000)
 -- CPU_ReadMem(16 bytes @ 0xE000EFF0) -- CPU_ReadMem(16 bytes @ 0xE000EFE0)ROMTbl 0 [0]: FFF0F000, CID: B105E00D, PID: 000BB00C SCS -- CPU_ReadMem(16 bytes @ 0xE0001FF0) -- CPU_ReadMem(16 bytes @ 0xE0001FE0)ROMTbl 0 [1]: FFF02000, CID: B105E00D, PID: 003BB002 DWT -- CPU_ReadMem(16 bytes @ 0xE0002FF0) -- CPU_ReadMem(16 bytes @ 0xE0002FE0)ROMTbl 0 [2]: FFF03000, CID: B105E00D, PID: 002BB003 FPB -- CPU_ReadMem(16 bytes @ 0xE0000FF0) -- CPU_ReadMem(16 bytes @ 0xE0000FE0)
ROMTbl 0 [3]: FFF01000, CID: B105E00D, PID: 003BB001 ITM -- CPU_ReadMem(16 bytes @ 0xE00FF010) -- CPU_ReadMem(16 bytes @ 0xE0040FF0) -- CPU_ReadMem(16 bytes @ 0xE0040FE0)ROMTbl 0 [4]: FFF41000, CID: B105900D, PID: 000BB9A1 TPIU -- CPU_ReadMem(16 bytes @ 0xE0041FF0) -- CPU_ReadMem(16 bytes @ 0xE0041FE0)ROMTbl 0 [5]: FFF42000, CID: B105900D, PID: 000BB925 ETM >0x0D TIF> >0x21 TIF>  returns 0x2BA01477 (0180ms, 0758ms total)
T0718 000:878 JLINK_GetDLLVersion()  returns 50206 (0000ms, 0758ms total)
T0718 000:878 JLINK_CORE_GetFound()  returns 0xE0000FF (0000ms, 0758ms total)
T0718 000:878 JLINK_GetDebugInfo(0x100) -- Value=0xE00FF003  returns 0x00 (0000ms, 0758ms total)
T0718 000:887 JLINK_GetDebugInfo(0x100) -- Value=0xE00FF003  returns 0x00 (0000ms, 0758ms total)
T0718 000:887 JLINK_GetDebugInfo(0x101) -- Value=0xE0041000  returns 0x00 (0000ms, 0758ms total)
T0718 000:887 JLINK_GetDebugInfo(0x102) -- Value=0x00000000  returns 0x00 (0000ms, 0758ms total)
T0718 000:887 JLINK_GetDebugInfo(0x103) -- Value=0xE0040000  returns 0x00 (0000ms, 0758ms total)
T0718 000:887 JLINK_GetDebugInfo(0x104) -- Value=0xE0000000  returns 0x00 (0000ms, 0758ms total)
T0718 000:887 JLINK_GetDebugInfo(0x105) -- Value=0xE0001000  returns 0x00 (0000ms, 0758ms total)
T0718 000:887 JLINK_GetDebugInfo(0x106) -- Value=0xE0002000  returns 0x00 (0000ms, 0758ms total)
T0718 000:887 JLINK_GetDebugInfo(0x107) -- Value=0xE000E000  returns 0x00 (0000ms, 0758ms total)
T0718 000:887 JLINK_GetDebugInfo(0x10C) -- Value=0xE000EDF0  returns 0x00 (0000ms, 0758ms total)
T0718 000:887 JLINK_ReadMemU32(0xE000EF40, 0x0001 Items, ...) -- CPU is running -- CPU_ReadMem(4 bytes @ 0xE000EF40) - Data: 21 00 11 10  returns 0x01 (0002ms, 0760ms total)
T0718 000:889 JLINK_ReadMemU32(0xE000EF44, 0x0001 Items, ...) -- CPU is running -- CPU_ReadMem(4 bytes @ 0xE000EF44) - Data: 11 00 00 11  returns 0x01 (0002ms, 0762ms total)
T0718 000:891 JLINK_ReadMemU32(0xE000ED00, 0x0001 Items, ...) -- CPU is running -- CPU_ReadMem(4 bytes @ 0xE000ED00) - Data: 41 C2 0F 41  returns 0x01 (0002ms, 0764ms total)
T0718 000:893 JLINK_SetResetType(JLINKARM_RESET_TYPE_NORMAL)  returns JLINKARM_RESET_TYPE_NORMAL (0000ms, 0764ms total)
T0718 000:893 JLINK_Reset() -- CPU is running -- CPU_WriteMem(4 bytes @ 0xE000EDF0) -- CPU is running -- CPU_WriteMem(4 bytes @ 0xE000EDFC) >0x35 TIF> -- CPU is running -- CPU_WriteMem(4 bytes @ 0xE000ED0C) -- CPU is running -- CPU_ReadMem(4 bytes @ 0xE000EDF0) -- CPU is running -- CPU_ReadMem(4 bytes @ 0xE000EDF0) -- CPU is running -- CPU_WriteMem(4 bytes @ 0xE000EDF0) -- CPU is running -- CPU_WriteMem(4 bytes @ 0xE000EDFC) -- CPU is running -- CPU_ReadMem(4 bytes @ 0xE000EDF0)
 -- CPU_WriteMem(4 bytes @ 0xE0002000) -- CPU_ReadMem(4 bytes @ 0xE000EDFC) -- CPU_ReadMem(4 bytes @ 0xE0001000) (0025ms, 0789ms total)
T0718 000:918 JLINK_Halt()  returns 0x00 (0001ms, 0790ms total)
T0718 000:919 JLINK_IsHalted()  returns TRUE (0000ms, 0790ms total)
T0718 000:919 JLINK_ReadMemU32(0xE000EDF0, 0x0001 Items, ...) -- CPU_ReadMem(4 bytes @ 0xE000EDF0) - Data: 03 00 03 00  returns 0x01 (0001ms, 0791ms total)
T0718 000:920 JLINK_WriteU32(0xE000EDF0, 0xA05F0003) -- CPU_WriteMem(4 bytes @ 0xE000EDF0)  returns 0x00 (0001ms, 0792ms total)
T0718 000:921 JLINK_WriteU32(0xE000EDFC, 0x01000000) -- CPU_WriteMem(4 bytes @ 0xE000EDFC)  returns 0x00 (0001ms, 0793ms total)
T0718 000:958 JLINK_GetHWStatus(...)  returns 0x00 (0003ms, 0796ms total)
T0718 000:990 JLINK_GetNumBPUnits(Type = 0xFFFFFF00)  returns 0x06 (0000ms, 0796ms total)
T0718 000:990 JLINK_GetNumBPUnits(Type = 0xF0)  returns 0x2000 (0000ms, 0796ms total)
T0718 000:990 JLINK_GetNumWPUnits()  returns 0x04 (0000ms, 0796ms total)
T0718 001:018 JLINK_GetSpeed()  returns 0x7D0 (0001ms, 0797ms total)
T0718 001:037 JLINK_ReadMemU32(0xE000E004, 0x0001 Items, ...) -- CPU_ReadMem(4 bytes @ 0xE000E004) - Data: 02 00 00 00  returns 0x01 (0002ms, 0799ms total)
T0718 001:039 JLINK_ReadMemU32(0xE000E004, 0x0001 Items, ...) -- CPU_ReadMem(4 bytes @ 0xE000E004) - Data: 02 00 00 00  returns 0x01 (0001ms, 0800ms total)
T0718 001:040 JLINK_WriteMem(0xE0001000, 0x001C Bytes, ...) - Data: 01 00 00 00 00 00 00 00 00 00 00 00 00 00 00 00 ... -- CPU_WriteMem(28 bytes @ 0xE0001000)  returns 0x1C (0002ms, 0802ms total)
T0718 001:042 JLINK_ReadMem (0xE0001000, 0x001C Bytes, ...) -- CPU_ReadMem(28 bytes @ 0xE0001000) - Data: 01 00 00 40 00 00 00 00 00 00 00 00 00 00 00 00 ...  returns 0x00 (0002ms, 0804ms total)
T0718 001:044 JLINK_Halt()  returns 0x00 (0000ms, 0804ms total)
T0718 001:044 JLINK_IsHalted()  returns TRUE (0000ms, 0804ms total)
T0718 001:047 JLINK_WriteMem(0x20000000, 0x0188 Bytes, ...) - Data: 00 BE 0A E0 0D 78 2D 06 68 40 08 24 40 00 00 D3 ... -- CPU_WriteMem(392 bytes @ 0x20000000)  returns 0x188 (0006ms, 0810ms total)
T0718 001:053 JLINK_WriteReg(R0, 0x08000000)  returns 0x00 (0000ms, 0810ms total)
T0718 001:053 JLINK_WriteReg(R1, 0x00B71B00)  returns 0x00 (0000ms, 0810ms total)
T0718 001:053 JLINK_WriteReg(R2, 0x00000001)  returns 0x00 (0000ms, 0810ms total)
T0718 001:053 JLINK_WriteReg(R3, 0x00000000)  returns 0x00 (0000ms, 0810ms total)
T0718 001:053 JLINK_WriteReg(R4, 0x00000000)  returns 0x00 (0000ms, 0810ms total)
T0718 001:053 JLINK_WriteReg(R5, 0x00000000)  returns 0x00 (0000ms, 0810ms total)
T0718 001:053 JLINK_WriteReg(R6, 0x00000000)  returns 0x00 (0000ms, 0810ms total)
T0718 001:053 JLINK_WriteReg(R7, 0x00000000)  returns 0x00 (0000ms, 0810ms total)
T0718 001:053 JLINK_WriteReg(R8, 0x00000000)  returns 0x00 (0000ms, 0810ms total)
T0718 001:053 JLINK_WriteReg(R9, 0x20000184)  returns 0x00 (0000ms, 0810ms total)
T0718 001:053 JLINK_WriteReg(R10, 0x00000000)  returns 0x00 (0000ms, 0810ms total)
T0718 001:053 JLINK_WriteReg(R11, 0x00000000)  returns 0x00 (0001ms, 0811ms total)
T0718 001:054 JLINK_WriteReg(R12, 0x00000000)  returns 0x00 (0000ms, 0811ms total)
T0718 001:054 JLINK_WriteReg(R13 (SP), 0x20001000)  returns 0x00 (0000ms, 0811ms total)
T0718 001:054 JLINK_WriteReg(R14, 0x20000001)  returns 0x00 (0000ms, 0811ms total)
T0718 001:054 JLINK_WriteReg(R15 (PC), 0x2000005E)  returns 0x00 (0000ms, 0811ms total)
T0718 001:054 JLINK_WriteReg(XPSR, 0x01000000)  returns 0x00 (0000ms, 0811ms total)
T0718 001:054 JLINK_WriteReg(MSP, 0x20001000)  returns 0x00 (0000ms, 0811ms total)
T0718 001:054 JLINK_WriteReg(PSP, 0x20001000)  returns 0x00 (0000ms, 0811ms total)
T0718 001:054 JLINK_WriteReg(CFBP, 0x00000000)  returns 0x00 (0000ms, 0811ms total)
T0718 001:054 JLINK_SetBPEx(Addr = 0x20000000, Type = 0xFFFFFFF2) -- CPU_ReadMem(4 bytes @ 0x20000000) -- CPU_WriteMem(4 bytes @ 0x20000000) -- CPU_ReadMem(4 bytes @ 0x20000000) -- CPU_WriteMem(4 bytes @ 0x20000000) -- CPU_ReadMem(2 bytes @ 0x20000000)  returns 0x00000001 (0004ms, 0815ms total)
T0718 001:058 JLINK_Go() -- CPU_WriteMem(2 bytes @ 0x20000000) -- CPU_ReadMem(4 bytes @ 0xE0001000) -- CPU_WriteMem(4 bytes @ 0xE0002008) -- CPU_WriteMem(4 bytes @ 0xE000200C) -- CPU_WriteMem(4 bytes @ 0xE0002010) -- CPU_WriteMem(4 bytes @ 0xE0002014) -- CPU_WriteMem(4 bytes @ 0xE0002018) -- CPU_WriteMem(4 bytes @ 0xE000201C) -- CPU_WriteMem(4 bytes @ 0xE0001004) (0010ms, 0825ms total)
T0718 001:068 JLINK_IsHalted() -- CPU_ReadMem(2 bytes @ 0x20000000)  returns TRUE (0007ms, 0832ms total)
T0718 001:075 JLINK_ReadReg(R15 (PC))  returns 0x20000000 (0000ms, 0825ms total)
T0718 001:075 JLINK_ClrBPEx(BPHandle = 0x00000001)  returns 0x00 (0000ms, 0825ms total)
T0718 001:075 JLINK_ReadReg(R0)  returns 0x00000000 (0000ms, 0825ms total)
T0718 001:076 JLINK_WriteReg(R0, 0x08000000)  returns 0x00 (0000ms, 0825ms total)
T0718 001:076 JLINK_WriteReg(R1, 0x00004000)  returns 0x00 (0000ms, 0825ms total)
T0718 001:076 JLINK_WriteReg(R2, 0x000000FF)  returns 0x00 (0000ms, 0825ms total)
T0718 001:076 JLINK_WriteReg(R3, 0x00000000)  returns 0x00 (0000ms, 0825ms total)
T0718 001:076 JLINK_WriteReg(R4, 0x00000000)  returns 0x00 (0000ms, 0825ms total)
T0718 001:076 JLINK_WriteReg(R5, 0x00000000)  returns 0x00 (0000ms, 0825ms total)
T0718 001:076 JLINK_WriteReg(R6, 0x00000000)  returns 0x00 (0000ms, 0825ms total)
T0718 001:076 JLINK_WriteReg(R7, 0x00000000)  returns 0x00 (0000ms, 0825ms total)
T0718 001:076 JLINK_WriteReg(R8, 0x00000000)  returns 0x00 (0000ms, 0825ms total)
T0718 001:076 JLINK_WriteReg(R9, 0x20000184)  returns 0x00 (0000ms, 0825ms total)
T0718 001:076 JLINK_WriteReg(R10, 0x00000000)  returns 0x00 (0000ms, 0825ms total)
T0718 001:076 JLINK_WriteReg(R11, 0x00000000)  returns 0x00 (0000ms, 0825ms total)
T0718 001:076 JLINK_WriteReg(R12, 0x00000000)  returns 0x00 (0000ms, 0825ms total)
T0718 001:076 JLINK_WriteReg(R13 (SP), 0x20001000)  returns 0x00 (0000ms, 0825ms total)
T0718 001:076 JLINK_WriteReg(R14, 0x20000001)  returns 0x00 (0000ms, 0825ms total)
T0718 001:076 JLINK_WriteReg(R15 (PC), 0x20000020)  returns 0x00 (0000ms, 0825ms total)
T0718 001:076 JLINK_WriteReg(XPSR, 0x01000000)  returns 0x00 (0000ms, 0825ms total)
T0718 001:076 JLINK_WriteReg(MSP, 0x20001000)  returns 0x00 (0000ms, 0825ms total)
T0718 001:076 JLINK_WriteReg(PSP, 0x20001000)  returns 0x00 (0000ms, 0825ms total)
T0718 001:076 JLINK_WriteReg(CFBP, 0x00000000)  returns 0x00 (0000ms, 0825ms total)
T0718 001:076 JLINK_SetBPEx(Addr = 0x20000000, Type = 0xFFFFFFF2)  returns 0x00000002 (0000ms, 0825ms total)
T0718 001:076 JLINK_Go() -- CPU_ReadMem(4 bytes @ 0xE0001000) (0004ms, 0829ms total)
T0718 001:080 JLINK_IsHalted() -- CPU_ReadMem(2 bytes @ 0x20000000)  returns TRUE (0007ms, 0836ms total)
T0718 001:087 JLINK_ReadReg(R15 (PC))  returns 0x20000000 (0000ms, 0829ms total)
T0718 001:087 JLINK_ClrBPEx(BPHandle = 0x00000002)  returns 0x00 (0000ms, 0829ms total)
T0718 001:087 JLINK_ReadReg(R0)  returns 0x00000001 (0000ms, 0829ms total)
T0718 001:087 JLINK_WriteReg(R0, 0x08000000)  returns 0x00 (0000ms, 0829ms total)
T0718 001:087 JLINK_WriteReg(R1, 0x00004000)  returns 0x00 (0000ms, 0829ms total)
T0718 001:087 JLINK_WriteReg(R2, 0x000000FF)  returns 0x00 (0000ms, 0829ms total)
T0718 001:087 JLINK_WriteReg(R3, 0x00000000)  returns 0x00 (0000ms, 0829ms total)
T0718 001:087 JLINK_WriteReg(R4, 0x00000000)  returns 0x00 (0000ms, 0829ms total)
T0718 001:087 JLINK_WriteReg(R5, 0x00000000)  returns 0x00 (0000ms, 0829ms total)
T0718 001:087 JLINK_WriteReg(R6, 0x00000000)  returns 0x00 (0000ms, 0829ms total)
T0718 001:087 JLINK_WriteReg(R7, 0x00000000)  returns 0x00 (0000ms, 0829ms total)
T0718 001:087 JLINK_WriteReg(R8, 0x00000000)  returns 0x00 (0000ms, 0829ms total)
T0718 001:087 JLINK_WriteReg(R9, 0x20000184)  returns 0x00 (0000ms, 0829ms total)
T0718 001:087 JLINK_WriteReg(R10, 0x00000000)  returns 0x00 (0000ms, 0829ms total)
T0718 001:087 JLINK_WriteReg(R11, 0x00000000)  returns 0x00 (0000ms, 0829ms total)
T0718 001:087 JLINK_WriteReg(R12, 0x00000000)  returns 0x00 (0000ms, 0829ms total)
T0718 001:087 JLINK_WriteReg(R13 (SP), 0x20001000)  returns 0x00 (0000ms, 0829ms total)
T0718 001:087 JLINK_WriteReg(R14, 0x20000001)  returns 0x00 (0000ms, 0829ms total)
T0718 001:087 JLINK_WriteReg(R15 (PC), 0x200000C6)  returns 0x00 (0000ms, 0829ms total)
T0718 001:087 JLINK_WriteReg(XPSR, 0x01000000)  returns 0x00 (0000ms, 0829ms total)
T0718 001:087 JLINK_WriteReg(MSP, 0x20001000)  returns 0x00 (0000ms, 0829ms total)
T0718 001:087 JLINK_WriteReg(PSP, 0x20001000)  returns 0x00 (0000ms, 0829ms total)
T0718 001:087 JLINK_WriteReg(CFBP, 0x00000000)  returns 0x00 (0000ms, 0829ms total)
T0718 001:087 JLINK_SetBPEx(Addr = 0x20000000, Type = 0xFFFFFFF2)  returns 0x00000003 (0000ms, 0829ms total)
T0718 001:087 JLINK_Go() -- CPU_ReadMem(4 bytes @ 0xE0001000) (0005ms, 0834ms total)
T0718 001:092 JLINK_IsHalted()  returns FALSE (0001ms, 0835ms total)
T0718 001:305 JLINK_IsHalted()  returns FALSE (0001ms, 0835ms total)
T0718 001:459 JLINK_IsHalted() -- CPU_ReadMem(2 bytes @ 0x20000000)  returns TRUE (0007ms, 0841ms total)
T0718 001:466 JLINK_ReadReg(R15 (PC))  returns 0x20000000 (0000ms, 0834ms total)
T0718 001:466 JLINK_ClrBPEx(BPHandle = 0x00000003)  returns 0x00 (0000ms, 0834ms total)
T0718 001:466 JLINK_ReadReg(R0)  returns 0x00000000 (0000ms, 0834ms total)
T0718 001:466 JLINK_WriteReg(R0, 0x00000001)  returns 0x00 (0000ms, 0834ms total)
T0718 001:466 JLINK_WriteReg(R1, 0x00004000)  returns 0x00 (0000ms, 0834ms total)
T0718 001:466 JLINK_WriteReg(R2, 0x000000FF)  returns 0x00 (0000ms, 0834ms total)
T0718 001:466 JLINK_WriteReg(R3, 0x00000000)  returns 0x00 (0000ms, 0834ms total)
T0718 001:466 JLINK_WriteReg(R4, 0x00000000)  returns 0x00 (0000ms, 0834ms total)
T0718 001:466 JLINK_WriteReg(R5, 0x00000000)  returns 0x00 (0000ms, 0834ms total)
T0718 001:466 JLINK_WriteReg(R6, 0x00000000)  returns 0x00 (0000ms, 0834ms total)
T0718 001:466 JLINK_WriteReg(R7, 0x00000000)  returns 0x00 (0000ms, 0834ms total)
T0718 001:466 JLINK_WriteReg(R8, 0x00000000)  returns 0x00 (0000ms, 0834ms total)
T0718 001:466 JLINK_WriteReg(R9, 0x20000184)  returns 0x00 (0000ms, 0834ms total)
T0718 001:466 JLINK_WriteReg(R10, 0x00000000)  returns 0x00 (0000ms, 0834ms total)
T0718 001:466 JLINK_WriteReg(R11, 0x00000000)  returns 0x00 (0000ms, 0834ms total)
T0718 001:466 JLINK_WriteReg(R12, 0x00000000)  returns 0x00 (0000ms, 0834ms total)
T0718 001:466 JLINK_WriteReg(R13 (SP), 0x20001000)  returns 0x00 (0000ms, 0834ms total)
T0718 001:466 JLINK_WriteReg(R14, 0x20000001)  returns 0x00 (0000ms, 0834ms total)
T0718 001:466 JLINK_WriteReg(R15 (PC), 0x2000008C)  returns 0x00 (0000ms, 0834ms total)
T0718 001:466 JLINK_WriteReg(XPSR, 0x01000000)  returns 0x00 (0000ms, 0834ms total)
T0718 001:466 JLINK_WriteReg(MSP, 0x20001000)  returns 0x00 (0000ms, 0834ms total)
T0718 001:466 JLINK_WriteReg(PSP, 0x20001000)  returns 0x00 (0001ms, 0835ms total)
T0718 001:467 JLINK_WriteReg(CFBP, 0x00000000)  returns 0x00 (0000ms, 0835ms total)
T0718 001:467 JLINK_SetBPEx(Addr = 0x20000000, Type = 0xFFFFFFF2)  returns 0x00000004 (0000ms, 0835ms total)
T0718 001:467 JLINK_Go() -- CPU_ReadMem(4 bytes @ 0xE0001000) (0004ms, 0839ms total)
T0718 001:471 JLINK_IsHalted() -- CPU_ReadMem(2 bytes @ 0x20000000)  returns TRUE (0007ms, 0846ms total)
T0718 001:478 JLINK_ReadReg(R15 (PC))  returns 0x20000000 (0000ms, 0839ms total)
T0718 001:478 JLINK_ClrBPEx(BPHandle = 0x00000004)  returns 0x00 (0000ms, 0839ms total)
T0718 001:478 JLINK_ReadReg(R0)  returns 0x00000000 (0000ms, 0839ms total)
T0718 001:565 JLINK_WriteMem(0x20000000, 0x0188 Bytes, ...) - Data: 00 BE 0A E0 0D 78 2D 06 68 40 08 24 40 00 00 D3 ... -- CPU_WriteMem(392 bytes @ 0x20000000)  returns 0x188 (0006ms, 0845ms total)
T0718 001:571 JLINK_WriteReg(R0, 0x08000000)  returns 0x00 (0000ms, 0845ms total)
T0718 001:571 JLINK_WriteReg(R1, 0x00B71B00)  returns 0x00 (0000ms, 0845ms total)
T0718 001:571 JLINK_WriteReg(R2, 0x00000002)  returns 0x00 (0000ms, 0845ms total)
T0718 001:571 JLINK_WriteReg(R3, 0x00000000)  returns 0x00 (0000ms, 0845ms total)
T0718 001:571 JLINK_WriteReg(R4, 0x00000000)  returns 0x00 (0000ms, 0845ms total)
T0718 001:571 JLINK_WriteReg(R5, 0x00000000)  returns 0x00 (0000ms, 0845ms total)
T0718 001:571 JLINK_WriteReg(R6, 0x00000000)  returns 0x00 (0000ms, 0845ms total)
T0718 001:571 JLINK_WriteReg(R7, 0x00000000)  returns 0x00 (0000ms, 0845ms total)
T0718 001:571 JLINK_WriteReg(R8, 0x00000000)  returns 0x00 (0000ms, 0845ms total)
T0718 001:571 JLINK_WriteReg(R9, 0x20000184)  returns 0x00 (0000ms, 0845ms total)
T0718 001:571 JLINK_WriteReg(R10, 0x00000000)  returns 0x00 (0000ms, 0845ms total)
T0718 001:571 JLINK_WriteReg(R11, 0x00000000)  returns 0x00 (0000ms, 0845ms total)
T0718 001:571 JLINK_WriteReg(R12, 0x00000000)  returns 0x00 (0000ms, 0845ms total)
T0718 001:571 JLINK_WriteReg(R13 (SP), 0x20001000)  returns 0x00 (0000ms, 0845ms total)
T0718 001:571 JLINK_WriteReg(R14, 0x20000001)  returns 0x00 (0000ms, 0845ms total)
T0718 001:571 JLINK_WriteReg(R15 (PC), 0x2000005E)  returns 0x00 (0000ms, 0845ms total)
T0718 001:571 JLINK_WriteReg(XPSR, 0x01000000)  returns 0x00 (0000ms, 0845ms total)
T0718 001:571 JLINK_WriteReg(MSP, 0x20001000)  returns 0x00 (0000ms, 0845ms total)
T0718 001:571 JLINK_WriteReg(PSP, 0x20001000)  returns 0x00 (0001ms, 0846ms total)
T0718 001:572 JLINK_WriteReg(CFBP, 0x00000000)  returns 0x00 (0000ms, 0846ms total)
T0718 001:572 JLINK_SetBPEx(Addr = 0x20000000, Type = 0xFFFFFFF2) -- CPU_ReadMem(4 bytes @ 0x20000000) -- CPU_WriteMem(4 bytes @ 0x20000000) -- CPU_ReadMem(4 bytes @ 0x20000000) -- CPU_WriteMem(4 bytes @ 0x20000000) -- CPU_ReadMem(2 bytes @ 0x20000000)  returns 0x00000005 (0006ms, 0852ms total)
T0718 001:578 JLINK_Go() -- CPU_WriteMem(2 bytes @ 0x20000000) -- CPU_ReadMem(4 bytes @ 0xE0001000) (0005ms, 0857ms total)
T0718 001:583 JLINK_IsHalted() -- CPU_ReadMem(2 bytes @ 0x20000000)  returns TRUE (0007ms, 0864ms total)
T0718 001:590 JLINK_ReadReg(R15 (PC))  returns 0x20000000 (0000ms, 0857ms total)
T0718 001:590 JLINK_ClrBPEx(BPHandle = 0x00000005)  returns 0x00 (0000ms, 0857ms total)
T0718 001:590 JLINK_ReadReg(R0)  returns 0x00000000 (0000ms, 0857ms total)
T0718 001:590 JLINK_WriteMem(0x20000188, 0x0400 Bytes, ...) - Data: 50 15 00 20 A9 01 00 08 D7 1C 00 08 79 1A 00 08 ... -- CPU_WriteMem(1024 bytes @ 0x20000188)  returns 0x400 (0012ms, 0869ms total)
T0718 001:603 JLINK_WriteReg(R0, 0x08000000)  returns 0x00 (0000ms, 0869ms total)
T0718 001:603 JLINK_WriteReg(R1, 0x00000400)  returns 0x00 (0000ms, 0869ms total)
T0718 001:603 JLINK_WriteReg(R2, 0x20000188)  returns 0x00 (0000ms, 0869ms total)
T0718 001:603 JLINK_WriteReg(R3, 0x00000000)  returns 0x00 (0000ms, 0869ms total)
T0718 001:603 JLINK_WriteReg(R4, 0x00000000)  returns 0x00 (0000ms, 0869ms total)
T0718 001:603 JLINK_WriteReg(R5, 0x00000000)  returns 0x00 (0000ms, 0869ms total)
T0718 001:603 JLINK_WriteReg(R6, 0x00000000)  returns 0x00 (0000ms, 0869ms total)
T0718 001:603 JLINK_WriteReg(R7, 0x00000000)  returns 0x00 (0000ms, 0869ms total)
T0718 001:603 JLINK_WriteReg(R8, 0x00000000)  returns 0x00 (0000ms, 0869ms total)
T0718 001:603 JLINK_WriteReg(R9, 0x20000184)  returns 0x00 (0000ms, 0869ms total)
T0718 001:603 JLINK_WriteReg(R10, 0x00000000)  returns 0x00 (0000ms, 0869ms total)
T0718 001:603 JLINK_WriteReg(R11, 0x00000000)  returns 0x00 (0000ms, 0869ms total)
T0718 001:603 JLINK_WriteReg(R12, 0x00000000)  returns 0x00 (0000ms, 0869ms total)
T0718 001:603 JLINK_WriteReg(R13 (SP), 0x20001000)  returns 0x00 (0000ms, 0869ms total)
T0718 001:603 JLINK_WriteReg(R14, 0x20000001)  returns 0x00 (0000ms, 0869ms total)
T0718 001:603 JLINK_WriteReg(R15 (PC), 0x20000112)  returns 0x00 (0000ms, 0869ms total)
T0718 001:603 JLINK_WriteReg(XPSR, 0x01000000)  returns 0x00 (0000ms, 0869ms total)
T0718 001:603 JLINK_WriteReg(MSP, 0x20001000)  returns 0x00 (0000ms, 0869ms total)
T0718 001:604 JLINK_WriteReg(PSP, 0x20001000)  returns 0x00 (0000ms, 0870ms total)
T0718 001:604 JLINK_WriteReg(CFBP, 0x00000000)  returns 0x00 (0000ms, 0870ms total)
T0718 001:604 JLINK_SetBPEx(Addr = 0x20000000, Type = 0xFFFFFFF2)  returns 0x00000006 (0000ms, 0870ms total)
T0718 001:604 JLINK_Go() -- CPU_ReadMem(4 bytes @ 0xE0001000) (0004ms, 0874ms total)
T0718 001:608 JLINK_IsHalted()  returns FALSE (0001ms, 0875ms total)
T0718 001:781 JLINK_IsHalted() -- CPU_ReadMem(2 bytes @ 0x20000000)  returns TRUE (0007ms, 0881ms total)
T0718 001:788 JLINK_ReadReg(R15 (PC))  returns 0x20000000 (0000ms, 0874ms total)
T0718 001:788 JLINK_ClrBPEx(BPHandle = 0x00000006)  returns 0x00 (0000ms, 0874ms total)
T0718 001:788 JLINK_ReadReg(R0)  returns 0x00000000 (0000ms, 0874ms total)
T0718 001:788 JLINK_WriteMem(0x20000188, 0x0400 Bytes, ...) - Data: 40 22 0A 60 0A 68 D2 43 12 06 05 D4 C2 69 42 F0 ... -- CPU_WriteMem(1024 bytes @ 0x20000188)  returns 0x400 (0012ms, 0886ms total)
T0718 001:800 JLINK_WriteReg(R0, 0x08000400)  returns 0x00 (0000ms, 0886ms total)
T0718 001:800 JLINK_WriteReg(R1, 0x00000400)  returns 0x00 (0000ms, 0886ms total)
T0718 001:800 JLINK_WriteReg(R2, 0x20000188)  returns 0x00 (0000ms, 0886ms total)
T0718 001:800 JLINK_WriteReg(R3, 0x00000000)  returns 0x00 (0000ms, 0886ms total)
T0718 001:800 JLINK_WriteReg(R4, 0x00000000)  returns 0x00 (0000ms, 0886ms total)
T0718 001:800 JLINK_WriteReg(R5, 0x00000000)  returns 0x00 (0000ms, 0886ms total)
T0718 001:800 JLINK_WriteReg(R6, 0x00000000)  returns 0x00 (0000ms, 0886ms total)
T0718 001:800 JLINK_WriteReg(R7, 0x00000000)  returns 0x00 (0000ms, 0886ms total)
T0718 001:800 JLINK_WriteReg(R8, 0x00000000)  returns 0x00 (0000ms, 0886ms total)
T0718 001:800 JLINK_WriteReg(R9, 0x20000184)  returns 0x00 (0000ms, 0886ms total)
T0718 001:800 JLINK_WriteReg(R10, 0x00000000)  returns 0x00 (0000ms, 0886ms total)
T0718 001:800 JLINK_WriteReg(R11, 0x00000000)  returns 0x00 (0000ms, 0886ms total)
T0718 001:800 JLINK_WriteReg(R12, 0x00000000)  returns 0x00 (0000ms, 0886ms total)
T0718 001:800 JLINK_WriteReg(R13 (SP), 0x20001000)  returns 0x00 (0000ms, 0886ms total)
T0718 001:800 JLINK_WriteReg(R14, 0x20000001)  returns 0x00 (0000ms, 0886ms total)
T0718 001:800 JLINK_WriteReg(R15 (PC), 0x20000112)  returns 0x00 (0000ms, 0886ms total)
T0718 001:800 JLINK_WriteReg(XPSR, 0x01000000)  returns 0x00 (0000ms, 0886ms total)
T0718 001:801 JLINK_WriteReg(MSP, 0x20001000)  returns 0x00 (0000ms, 0887ms total)
T0718 001:801 JLINK_WriteReg(PSP, 0x20001000)  returns 0x00 (0000ms, 0887ms total)
T0718 001:801 JLINK_WriteReg(CFBP, 0x00000000)  returns 0x00 (0000ms, 0887ms total)
T0718 001:801 JLINK_SetBPEx(Addr = 0x20000000, Type = 0xFFFFFFF2)  returns 0x00000007 (0000ms, 0887ms total)
T0718 001:801 JLINK_Go() -- CPU_ReadMem(4 bytes @ 0xE0001000) (0004ms, 0891ms total)
T0718 001:805 JLINK_IsHalted()  returns FALSE (0001ms, 0892ms total)
T0718 002:006 JLINK_IsHalted() -- CPU_ReadMem(2 bytes @ 0x20000000)  returns TRUE (0006ms, 0897ms total)
T0718 002:012 JLINK_ReadReg(R15 (PC))  returns 0x20000000 (0000ms, 0891ms total)
T0718 002:012 JLINK_ClrBPEx(BPHandle = 0x00000007)  returns 0x00 (0000ms, 0891ms total)
T0718 002:012 JLINK_ReadReg(R0)  returns 0x00000000 (0000ms, 0891ms total)
T0718 002:013 JLINK_WriteMem(0x20000188, 0x0400 Bytes, ...) - Data: 01 08 4F F0 03 0A 4F F0 0F 09 0B F1 04 0E 00 BF ... -- CPU_WriteMem(1024 bytes @ 0x20000188)  returns 0x400 (0012ms, 0903ms total)
T0718 002:025 JLINK_WriteReg(R0, 0x08000800)  returns 0x00 (0000ms, 0903ms total)
T0718 002:025 JLINK_WriteReg(R1, 0x00000400)  returns 0x00 (0000ms, 0903ms total)
T0718 002:025 JLINK_WriteReg(R2, 0x20000188)  returns 0x00 (0000ms, 0903ms total)
T0718 002:025 JLINK_WriteReg(R3, 0x00000000)  returns 0x00 (0000ms, 0903ms total)
T0718 002:025 JLINK_WriteReg(R4, 0x00000000)  returns 0x00 (0000ms, 0903ms total)
T0718 002:025 JLINK_WriteReg(R5, 0x00000000)  returns 0x00 (0000ms, 0903ms total)
T0718 002:025 JLINK_WriteReg(R6, 0x00000000)  returns 0x00 (0000ms, 0903ms total)
T0718 002:025 JLINK_WriteReg(R7, 0x00000000)  returns 0x00 (0000ms, 0903ms total)
T0718 002:025 JLINK_WriteReg(R8, 0x00000000)  returns 0x00 (0000ms, 0903ms total)
T0718 002:025 JLINK_WriteReg(R9, 0x20000184)  returns 0x00 (0000ms, 0903ms total)
T0718 002:025 JLINK_WriteReg(R10, 0x00000000)  returns 0x00 (0000ms, 0903ms total)
T0718 002:025 JLINK_WriteReg(R11, 0x00000000)  returns 0x00 (0000ms, 0903ms total)
T0718 002:025 JLINK_WriteReg(R12, 0x00000000)  returns 0x00 (0000ms, 0903ms total)
T0718 002:025 JLINK_WriteReg(R13 (SP), 0x20001000)  returns 0x00 (0000ms, 0903ms total)
T0718 002:025 JLINK_WriteReg(R14, 0x20000001)  returns 0x00 (0000ms, 0903ms total)
T0718 002:025 JLINK_WriteReg(R15 (PC), 0x20000112)  returns 0x00 (0000ms, 0903ms total)
T0718 002:025 JLINK_WriteReg(XPSR, 0x01000000)  returns 0x00 (0000ms, 0903ms total)
T0718 002:025 JLINK_WriteReg(MSP, 0x20001000)  returns 0x00 (0000ms, 0903ms total)
T0718 002:025 JLINK_WriteReg(PSP, 0x20001000)  returns 0x00 (0000ms, 0903ms total)
T0718 002:025 JLINK_WriteReg(CFBP, 0x00000000)  returns 0x00 (0000ms, 0903ms total)
T0718 002:025 JLINK_SetBPEx(Addr = 0x20000000, Type = 0xFFFFFFF2)  returns 0x00000008 (0000ms, 0903ms total)
T0718 002:025 JLINK_Go() -- CPU_ReadMem(4 bytes @ 0xE0001000) (0005ms, 0908ms total)
T0718 002:030 JLINK_IsHalted()  returns FALSE (0001ms, 0909ms total)
T0718 002:206 JLINK_IsHalted() -- CPU_ReadMem(2 bytes @ 0x20000000)  returns TRUE (0007ms, 0915ms total)
T0718 002:213 JLINK_ReadReg(R15 (PC))  returns 0x20000000 (0000ms, 0908ms total)
T0718 002:213 JLINK_ClrBPEx(BPHandle = 0x00000008)  returns 0x00 (0000ms, 0908ms total)
T0718 002:213 JLINK_ReadReg(R0)  returns 0x00000000 (0000ms, 0908ms total)
T0718 002:214 JLINK_WriteMem(0x20000188, 0x0400 Bytes, ...) - Data: 80 03 70 06 22 7C 20 68 08 D0 02 F0 8B F8 00 BF ... -- CPU_WriteMem(1024 bytes @ 0x20000188)  returns 0x400 (0012ms, 0920ms total)
T0718 002:226 JLINK_WriteReg(R0, 0x08000C00)  returns 0x00 (0000ms, 0920ms total)
T0718 002:226 JLINK_WriteReg(R1, 0x00000400)  returns 0x00 (0000ms, 0920ms total)
T0718 002:226 JLINK_WriteReg(R2, 0x20000188)  returns 0x00 (0000ms, 0920ms total)
T0718 002:226 JLINK_WriteReg(R3, 0x00000000)  returns 0x00 (0000ms, 0920ms total)
T0718 002:226 JLINK_WriteReg(R4, 0x00000000)  returns 0x00 (0000ms, 0920ms total)
T0718 002:226 JLINK_WriteReg(R5, 0x00000000)  returns 0x00 (0000ms, 0920ms total)
T0718 002:226 JLINK_WriteReg(R6, 0x00000000)  returns 0x00 (0000ms, 0920ms total)
T0718 002:226 JLINK_WriteReg(R7, 0x00000000)  returns 0x00 (0000ms, 0920ms total)
T0718 002:226 JLINK_WriteReg(R8, 0x00000000)  returns 0x00 (0000ms, 0920ms total)
T0718 002:226 JLINK_WriteReg(R9, 0x20000184)  returns 0x00 (0000ms, 0920ms total)
T0718 002:226 JLINK_WriteReg(R10, 0x00000000)  returns 0x00 (0000ms, 0920ms total)
T0718 002:226 JLINK_WriteReg(R11, 0x00000000)  returns 0x00 (0000ms, 0920ms total)
T0718 002:226 JLINK_WriteReg(R12, 0x00000000)  returns 0x00 (0000ms, 0920ms total)
T0718 002:226 JLINK_WriteReg(R13 (SP), 0x20001000)  returns 0x00 (0000ms, 0920ms total)
T0718 002:226 JLINK_WriteReg(R14, 0x20000001)  returns 0x00 (0000ms, 0920ms total)
T0718 002:226 JLINK_WriteReg(R15 (PC), 0x20000112)  returns 0x00 (0000ms, 0920ms total)
T0718 002:226 JLINK_WriteReg(XPSR, 0x01000000)  returns 0x00 (0000ms, 0920ms total)
T0718 002:226 JLINK_WriteReg(MSP, 0x20001000)  returns 0x00 (0000ms, 0920ms total)
T0718 002:226 JLINK_WriteReg(PSP, 0x20001000)  returns 0x00 (0000ms, 0920ms total)
T0718 002:226 JLINK_WriteReg(CFBP, 0x00000000)  returns 0x00 (0000ms, 0920ms total)
T0718 002:226 JLINK_SetBPEx(Addr = 0x20000000, Type = 0xFFFFFFF2)  returns 0x00000009 (0000ms, 0920ms total)
T0718 002:226 JLINK_Go() -- CPU_ReadMem(4 bytes @ 0xE0001000) (0005ms, 0925ms total)
T0718 002:231 JLINK_IsHalted()  returns FALSE (0001ms, 0926ms total)
T0718 002:404 JLINK_IsHalted() -- CPU_ReadMem(2 bytes @ 0x20000000)  returns TRUE (0006ms, 0931ms total)
T0718 002:410 JLINK_ReadReg(R15 (PC))  returns 0x20000000 (0000ms, 0925ms total)
T0718 002:410 JLINK_ClrBPEx(BPHandle = 0x00000009)  returns 0x00 (0000ms, 0925ms total)
T0718 002:410 JLINK_ReadReg(R0)  returns 0x00000000 (0000ms, 0925ms total)
T0718 002:411 JLINK_WriteMem(0x20000188, 0x0400 Bytes, ...) - Data: 10 51 D1 E7 47 F6 F0 71 18 EA 01 0F 16 D0 C8 F3 ... -- CPU_WriteMem(1024 bytes @ 0x20000188)  returns 0x400 (0012ms, 0937ms total)
T0718 002:423 JLINK_WriteReg(R0, 0x08001000)  returns 0x00 (0000ms, 0937ms total)
T0718 002:423 JLINK_WriteReg(R1, 0x00000400)  returns 0x00 (0000ms, 0937ms total)
T0718 002:423 JLINK_WriteReg(R2, 0x20000188)  returns 0x00 (0000ms, 0937ms total)
T0718 002:423 JLINK_WriteReg(R3, 0x00000000)  returns 0x00 (0000ms, 0937ms total)
T0718 002:423 JLINK_WriteReg(R4, 0x00000000)  returns 0x00 (0000ms, 0937ms total)
T0718 002:423 JLINK_WriteReg(R5, 0x00000000)  returns 0x00 (0000ms, 0937ms total)
T0718 002:423 JLINK_WriteReg(R6, 0x00000000)  returns 0x00 (0000ms, 0937ms total)
T0718 002:423 JLINK_WriteReg(R7, 0x00000000)  returns 0x00 (0000ms, 0937ms total)
T0718 002:423 JLINK_WriteReg(R8, 0x00000000)  returns 0x00 (0000ms, 0937ms total)
T0718 002:423 JLINK_WriteReg(R9, 0x20000184)  returns 0x00 (0000ms, 0937ms total)
T0718 002:423 JLINK_WriteReg(R10, 0x00000000)  returns 0x00 (0000ms, 0937ms total)
T0718 002:423 JLINK_WriteReg(R11, 0x00000000)  returns 0x00 (0000ms, 0937ms total)
T0718 002:423 JLINK_WriteReg(R12, 0x00000000)  returns 0x00 (0000ms, 0937ms total)
T0718 002:423 JLINK_WriteReg(R13 (SP), 0x20001000)  returns 0x00 (0000ms, 0937ms total)
T0718 002:423 JLINK_WriteReg(R14, 0x20000001)  returns 0x00 (0000ms, 0937ms total)
T0718 002:423 JLINK_WriteReg(R15 (PC), 0x20000112)  returns 0x00 (0000ms, 0937ms total)
T0718 002:423 JLINK_WriteReg(XPSR, 0x01000000)  returns 0x00 (0000ms, 0937ms total)
T0718 002:423 JLINK_WriteReg(MSP, 0x20001000)  returns 0x00 (0000ms, 0937ms total)
T0718 002:423 JLINK_WriteReg(PSP, 0x20001000)  returns 0x00 (0000ms, 0937ms total)
T0718 002:423 JLINK_WriteReg(CFBP, 0x00000000)  returns 0x00 (0000ms, 0937ms total)
T0718 002:423 JLINK_SetBPEx(Addr = 0x20000000, Type = 0xFFFFFFF2)  returns 0x0000000A (0000ms, 0937ms total)
T0718 002:423 JLINK_Go() -- CPU_ReadMem(4 bytes @ 0xE0001000) (0005ms, 0942ms total)
T0718 002:428 JLINK_IsHalted()  returns FALSE (0001ms, 0943ms total)
T0718 002:718 JLINK_IsHalted() -- CPU_ReadMem(2 bytes @ 0x20000000)  returns TRUE (0007ms, 0949ms total)
T0718 002:725 JLINK_ReadReg(R15 (PC))  returns 0x20000000 (0000ms, 0942ms total)
T0718 002:725 JLINK_ClrBPEx(BPHandle = 0x0000000A)  returns 0x00 (0000ms, 0942ms total)
T0718 002:725 JLINK_ReadReg(R0)  returns 0x00000000 (0000ms, 0942ms total)
T0718 002:726 JLINK_WriteMem(0x20000188, 0x0400 Bytes, ...) - Data: 02 28 0A D1 DB F8 00 00 40 02 06 D5 28 68 80 03 ... -- CPU_WriteMem(1024 bytes @ 0x20000188)  returns 0x400 (0012ms, 0954ms total)
T0718 002:738 JLINK_WriteReg(R0, 0x08001400)  returns 0x00 (0000ms, 0954ms total)
T0718 002:738 JLINK_WriteReg(R1, 0x00000400)  returns 0x00 (0000ms, 0954ms total)
T0718 002:738 JLINK_WriteReg(R2, 0x20000188)  returns 0x00 (0000ms, 0954ms total)
T0718 002:738 JLINK_WriteReg(R3, 0x00000000)  returns 0x00 (0000ms, 0954ms total)
T0718 002:738 JLINK_WriteReg(R4, 0x00000000)  returns 0x00 (0000ms, 0954ms total)
T0718 002:738 JLINK_WriteReg(R5, 0x00000000)  returns 0x00 (0000ms, 0954ms total)
T0718 002:738 JLINK_WriteReg(R6, 0x00000000)  returns 0x00 (0000ms, 0954ms total)
T0718 002:738 JLINK_WriteReg(R7, 0x00000000)  returns 0x00 (0000ms, 0954ms total)
T0718 002:738 JLINK_WriteReg(R8, 0x00000000)  returns 0x00 (0000ms, 0954ms total)
T0718 002:738 JLINK_WriteReg(R9, 0x20000184)  returns 0x00 (0000ms, 0954ms total)
T0718 002:738 JLINK_WriteReg(R10, 0x00000000)  returns 0x00 (0000ms, 0954ms total)
T0718 002:738 JLINK_WriteReg(R11, 0x00000000)  returns 0x00 (0000ms, 0954ms total)
T0718 002:738 JLINK_WriteReg(R12, 0x00000000)  returns 0x00 (0000ms, 0954ms total)
T0718 002:738 JLINK_WriteReg(R13 (SP), 0x20001000)  returns 0x00 (0000ms, 0954ms total)
T0718 002:738 JLINK_WriteReg(R14, 0x20000001)  returns 0x00 (0000ms, 0954ms total)
T0718 002:738 JLINK_WriteReg(R15 (PC), 0x20000112)  returns 0x00 (0000ms, 0954ms total)
T0718 002:738 JLINK_WriteReg(XPSR, 0x01000000)  returns 0x00 (0000ms, 0954ms total)
T0718 002:738 JLINK_WriteReg(MSP, 0x20001000)  returns 0x00 (0000ms, 0954ms total)
T0718 002:738 JLINK_WriteReg(PSP, 0x20001000)  returns 0x00 (0000ms, 0954ms total)
T0718 002:738 JLINK_WriteReg(CFBP, 0x00000000)  returns 0x00 (0000ms, 0954ms total)
T0718 002:738 JLINK_SetBPEx(Addr = 0x20000000, Type = 0xFFFFFFF2)  returns 0x0000000B (0000ms, 0954ms total)
T0718 002:738 JLINK_Go() -- CPU_ReadMem(4 bytes @ 0xE0001000) (0005ms, 0959ms total)
T0718 002:743 JLINK_IsHalted()  returns FALSE (0001ms, 0960ms total)
T0718 002:947 JLINK_IsHalted() -- CPU_ReadMem(2 bytes @ 0x20000000)  returns TRUE (0007ms, 0966ms total)
T0718 002:954 JLINK_ReadReg(R15 (PC))  returns 0x20000000 (0000ms, 0959ms total)
T0718 002:954 JLINK_ClrBPEx(BPHandle = 0x0000000B)  returns 0x00 (0000ms, 0959ms total)
T0718 002:954 JLINK_ReadReg(R0)  returns 0x00000000 (0000ms, 0959ms total)
T0718 002:954 JLINK_WriteMem(0x20000188, 0x0400 Bytes, ...) - Data: C9 07 04 D1 89 1E 01 61 20 46 00 F0 32 F8 20 68 ... -- CPU_WriteMem(1024 bytes @ 0x20000188)  returns 0x400 (0012ms, 0971ms total)
T0718 002:966 JLINK_WriteReg(R0, 0x08001800)  returns 0x00 (0000ms, 0971ms total)
T0718 002:966 JLINK_WriteReg(R1, 0x00000400)  returns 0x00 (0000ms, 0971ms total)
T0718 002:966 JLINK_WriteReg(R2, 0x20000188)  returns 0x00 (0000ms, 0971ms total)
T0718 002:966 JLINK_WriteReg(R3, 0x00000000)  returns 0x00 (0000ms, 0971ms total)
T0718 002:966 JLINK_WriteReg(R4, 0x00000000)  returns 0x00 (0000ms, 0971ms total)
T0718 002:966 JLINK_WriteReg(R5, 0x00000000)  returns 0x00 (0000ms, 0971ms total)
T0718 002:966 JLINK_WriteReg(R6, 0x00000000)  returns 0x00 (0000ms, 0971ms total)
T0718 002:966 JLINK_WriteReg(R7, 0x00000000)  returns 0x00 (0000ms, 0971ms total)
T0718 002:966 JLINK_WriteReg(R8, 0x00000000)  returns 0x00 (0000ms, 0971ms total)
T0718 002:966 JLINK_WriteReg(R9, 0x20000184)  returns 0x00 (0000ms, 0971ms total)
T0718 002:966 JLINK_WriteReg(R10, 0x00000000)  returns 0x00 (0000ms, 0971ms total)
T0718 002:966 JLINK_WriteReg(R11, 0x00000000)  returns 0x00 (0000ms, 0971ms total)
T0718 002:967 JLINK_WriteReg(R12, 0x00000000)  returns 0x00 (0000ms, 0972ms total)
T0718 002:967 JLINK_WriteReg(R13 (SP), 0x20001000)  returns 0x00 (0000ms, 0972ms total)
T0718 002:967 JLINK_WriteReg(R14, 0x20000001)  returns 0x00 (0000ms, 0972ms total)
T0718 002:967 JLINK_WriteReg(R15 (PC), 0x20000112)  returns 0x00 (0000ms, 0972ms total)
T0718 002:967 JLINK_WriteReg(XPSR, 0x01000000)  returns 0x00 (0000ms, 0972ms total)
T0718 002:967 JLINK_WriteReg(MSP, 0x20001000)  returns 0x00 (0000ms, 0972ms total)
T0718 002:967 JLINK_WriteReg(PSP, 0x20001000)  returns 0x00 (0000ms, 0972ms total)
T0718 002:967 JLINK_WriteReg(CFBP, 0x00000000)  returns 0x00 (0000ms, 0972ms total)
T0718 002:967 JLINK_SetBPEx(Addr = 0x20000000, Type = 0xFFFFFFF2)  returns 0x0000000C (0000ms, 0972ms total)
T0718 002:967 JLINK_Go() -- CPU_ReadMem(4 bytes @ 0xE0001000) (0004ms, 0976ms total)
T0718 002:971 JLINK_IsHalted()  returns FALSE (0001ms, 0977ms total)
T0718 003:138 JLINK_IsHalted() -- CPU_ReadMem(2 bytes @ 0x20000000)  returns TRUE (0006ms, 0982ms total)
T0718 003:144 JLINK_ReadReg(R15 (PC))  returns 0x20000000 (0001ms, 0977ms total)
T0718 003:145 JLINK_ClrBPEx(BPHandle = 0x0000000C)  returns 0x00 (0000ms, 0977ms total)
T0718 003:145 JLINK_ReadReg(R0)  returns 0x00000000 (0000ms, 0977ms total)
T0718 003:145 JLINK_WriteMem(0x20000188, 0x0400 Bytes, ...) - Data: 22 48 02 94 FE F7 F6 FD CD F8 00 80 CD E9 01 54 ... -- CPU_WriteMem(1024 bytes @ 0x20000188)  returns 0x400 (0012ms, 0989ms total)
T0718 003:157 JLINK_WriteReg(R0, 0x08001C00)  returns 0x00 (0000ms, 0989ms total)
T0718 003:157 JLINK_WriteReg(R1, 0x00000400)  returns 0x00 (0000ms, 0989ms total)
T0718 003:157 JLINK_WriteReg(R2, 0x20000188)  returns 0x00 (0000ms, 0989ms total)
T0718 003:157 JLINK_WriteReg(R3, 0x00000000)  returns 0x00 (0000ms, 0989ms total)
T0718 003:157 JLINK_WriteReg(R4, 0x00000000)  returns 0x00 (0000ms, 0989ms total)
T0718 003:157 JLINK_WriteReg(R5, 0x00000000)  returns 0x00 (0000ms, 0989ms total)
T0718 003:157 JLINK_WriteReg(R6, 0x00000000)  returns 0x00 (0000ms, 0989ms total)
T0718 003:157 JLINK_WriteReg(R7, 0x00000000)  returns 0x00 (0000ms, 0989ms total)
T0718 003:157 JLINK_WriteReg(R8, 0x00000000)  returns 0x00 (0000ms, 0989ms total)
T0718 003:157 JLINK_WriteReg(R9, 0x20000184)  returns 0x00 (0000ms, 0989ms total)
T0718 003:157 JLINK_WriteReg(R10, 0x00000000)  returns 0x00 (0000ms, 0989ms total)
T0718 003:157 JLINK_WriteReg(R11, 0x00000000)  returns 0x00 (0000ms, 0989ms total)
T0718 003:157 JLINK_WriteReg(R12, 0x00000000)  returns 0x00 (0000ms, 0989ms total)
T0718 003:157 JLINK_WriteReg(R13 (SP), 0x20001000)  returns 0x00 (0000ms, 0989ms total)
T0718 003:157 JLINK_WriteReg(R14, 0x20000001)  returns 0x00 (0000ms, 0989ms total)
T0718 003:157 JLINK_WriteReg(R15 (PC), 0x20000112)  returns 0x00 (0000ms, 0989ms total)
T0718 003:157 JLINK_WriteReg(XPSR, 0x01000000)  returns 0x00 (0000ms, 0989ms total)
T0718 003:157 JLINK_WriteReg(MSP, 0x20001000)  returns 0x00 (0000ms, 0989ms total)
T0718 003:157 JLINK_WriteReg(PSP, 0x20001000)  returns 0x00 (0000ms, 0989ms total)
T0718 003:157 JLINK_WriteReg(CFBP, 0x00000000)  returns 0x00 (0000ms, 0989ms total)
T0718 003:157 JLINK_SetBPEx(Addr = 0x20000000, Type = 0xFFFFFFF2)  returns 0x0000000D (0000ms, 0989ms total)
T0718 003:157 JLINK_Go() -- CPU_ReadMem(4 bytes @ 0xE0001000) (0005ms, 0994ms total)
T0718 003:162 JLINK_IsHalted()  returns FALSE (0001ms, 0995ms total)
T0718 003:341 JLINK_IsHalted() -- CPU_ReadMem(2 bytes @ 0x20000000)  returns TRUE (0007ms, 1001ms total)
T0718 003:348 JLINK_ReadReg(R15 (PC))  returns 0x20000000 (0000ms, 0994ms total)
T0718 003:348 JLINK_ClrBPEx(BPHandle = 0x0000000D)  returns 0x00 (0000ms, 0994ms total)
T0718 003:348 JLINK_ReadReg(R0)  returns 0x00000000 (0000ms, 0994ms total)
T0718 003:349 JLINK_WriteMem(0x20000188, 0x0400 Bytes, ...) - Data: 09 04 09 0C C1 85 18 D0 26 E0 02 69 81 6A 00 2A ... -- CPU_WriteMem(1024 bytes @ 0x20000188)  returns 0x400 (0012ms, 1006ms total)
T0718 003:361 JLINK_WriteReg(R0, 0x08002000)  returns 0x00 (0000ms, 1006ms total)
T0718 003:361 JLINK_WriteReg(R1, 0x00000400)  returns 0x00 (0000ms, 1006ms total)
T0718 003:361 JLINK_WriteReg(R2, 0x20000188)  returns 0x00 (0000ms, 1006ms total)
T0718 003:361 JLINK_WriteReg(R3, 0x00000000)  returns 0x00 (0000ms, 1006ms total)
T0718 003:361 JLINK_WriteReg(R4, 0x00000000)  returns 0x00 (0000ms, 1006ms total)
T0718 003:361 JLINK_WriteReg(R5, 0x00000000)  returns 0x00 (0000ms, 1006ms total)
T0718 003:361 JLINK_WriteReg(R6, 0x00000000)  returns 0x00 (0000ms, 1006ms total)
T0718 003:361 JLINK_WriteReg(R7, 0x00000000)  returns 0x00 (0000ms, 1006ms total)
T0718 003:361 JLINK_WriteReg(R8, 0x00000000)  returns 0x00 (0000ms, 1006ms total)
T0718 003:361 JLINK_WriteReg(R9, 0x20000184)  returns 0x00 (0000ms, 1006ms total)
T0718 003:361 JLINK_WriteReg(R10, 0x00000000)  returns 0x00 (0000ms, 1006ms total)
T0718 003:361 JLINK_WriteReg(R11, 0x00000000)  returns 0x00 (0000ms, 1006ms total)
T0718 003:361 JLINK_WriteReg(R12, 0x00000000)  returns 0x00 (0000ms, 1006ms total)
T0718 003:361 JLINK_WriteReg(R13 (SP), 0x20001000)  returns 0x00 (0000ms, 1006ms total)
T0718 003:361 JLINK_WriteReg(R14, 0x20000001)  returns 0x00 (0000ms, 1006ms total)
T0718 003:361 JLINK_WriteReg(R15 (PC), 0x20000112)  returns 0x00 (0000ms, 1006ms total)
T0718 003:361 JLINK_WriteReg(XPSR, 0x01000000)  returns 0x00 (0000ms, 1006ms total)
T0718 003:361 JLINK_WriteReg(MSP, 0x20001000)  returns 0x00 (0000ms, 1006ms total)
T0718 003:361 JLINK_WriteReg(PSP, 0x20001000)  returns 0x00 (0000ms, 1006ms total)
T0718 003:361 JLINK_WriteReg(CFBP, 0x00000000)  returns 0x00 (0000ms, 1006ms total)
T0718 003:361 JLINK_SetBPEx(Addr = 0x20000000, Type = 0xFFFFFFF2)  returns 0x0000000E (0000ms, 1006ms total)
T0718 003:361 JLINK_Go() -- CPU_ReadMem(4 bytes @ 0xE0001000) (0004ms, 1010ms total)
T0718 003:365 JLINK_IsHalted()  returns FALSE (0001ms, 1011ms total)
T0718 003:578 JLINK_IsHalted() -- CPU_ReadMem(2 bytes @ 0x20000000)  returns TRUE (0006ms, 1016ms total)
T0718 003:584 JLINK_ReadReg(R15 (PC))  returns 0x20000000 (0000ms, 1010ms total)
T0718 003:584 JLINK_ClrBPEx(BPHandle = 0x0000000E)  returns 0x00 (0001ms, 1011ms total)
T0718 003:585 JLINK_ReadReg(R0)  returns 0x00000000 (0000ms, 1011ms total)
T0718 003:585 JLINK_WriteMem(0x20000188, 0x0400 Bytes, ...) - Data: 10 BD F8 B5 04 46 48 88 0D 46 01 0A 08 29 54 D2 ... -- CPU_WriteMem(1024 bytes @ 0x20000188)  returns 0x400 (0012ms, 1023ms total)
T0718 003:597 JLINK_WriteReg(R0, 0x08002400)  returns 0x00 (0000ms, 1023ms total)
T0718 003:597 JLINK_WriteReg(R1, 0x00000400)  returns 0x00 (0000ms, 1023ms total)
T0718 003:597 JLINK_WriteReg(R2, 0x20000188)  returns 0x00 (0000ms, 1023ms total)
T0718 003:597 JLINK_WriteReg(R3, 0x00000000)  returns 0x00 (0000ms, 1023ms total)
T0718 003:597 JLINK_WriteReg(R4, 0x00000000)  returns 0x00 (0000ms, 1023ms total)
T0718 003:597 JLINK_WriteReg(R5, 0x00000000)  returns 0x00 (0000ms, 1023ms total)
T0718 003:597 JLINK_WriteReg(R6, 0x00000000)  returns 0x00 (0000ms, 1023ms total)
T0718 003:597 JLINK_WriteReg(R7, 0x00000000)  returns 0x00 (0000ms, 1023ms total)
T0718 003:597 JLINK_WriteReg(R8, 0x00000000)  returns 0x00 (0000ms, 1023ms total)
T0718 003:597 JLINK_WriteReg(R9, 0x20000184)  returns 0x00 (0000ms, 1023ms total)
T0718 003:597 JLINK_WriteReg(R10, 0x00000000)  returns 0x00 (0000ms, 1023ms total)
T0718 003:597 JLINK_WriteReg(R11, 0x00000000)  returns 0x00 (0000ms, 1023ms total)
T0718 003:597 JLINK_WriteReg(R12, 0x00000000)  returns 0x00 (0000ms, 1023ms total)
T0718 003:597 JLINK_WriteReg(R13 (SP), 0x20001000)  returns 0x00 (0000ms, 1023ms total)
T0718 003:597 JLINK_WriteReg(R14, 0x20000001)  returns 0x00 (0000ms, 1023ms total)
T0718 003:597 JLINK_WriteReg(R15 (PC), 0x20000112)  returns 0x00 (0000ms, 1023ms total)
T0718 003:597 JLINK_WriteReg(XPSR, 0x01000000)  returns 0x00 (0000ms, 1023ms total)
T0718 003:597 JLINK_WriteReg(MSP, 0x20001000)  returns 0x00 (0000ms, 1023ms total)
T0718 003:597 JLINK_WriteReg(PSP, 0x20001000)  returns 0x00 (0000ms, 1023ms total)
T0718 003:597 JLINK_WriteReg(CFBP, 0x00000000)  returns 0x00 (0000ms, 1023ms total)
T0718 003:597 JLINK_SetBPEx(Addr = 0x20000000, Type = 0xFFFFFFF2)  returns 0x0000000F (0000ms, 1023ms total)
T0718 003:597 JLINK_Go() -- CPU_ReadMem(4 bytes @ 0xE0001000) (0005ms, 1028ms total)
T0718 003:602 JLINK_IsHalted()  returns FALSE (0001ms, 1029ms total)
T0718 003:789 JLINK_IsHalted() -- CPU_ReadMem(2 bytes @ 0x20000000)  returns TRUE (0006ms, 1034ms total)
T0718 003:795 JLINK_ReadReg(R15 (PC))  returns 0x20000000 (0000ms, 1028ms total)
T0718 003:795 JLINK_ClrBPEx(BPHandle = 0x0000000F)  returns 0x00 (0001ms, 1029ms total)
T0718 003:796 JLINK_ReadReg(R0)  returns 0x00000000 (0000ms, 1029ms total)
T0718 003:796 JLINK_WriteMem(0x20000188, 0x0400 Bytes, ...) - Data: 20 46 BD E8 70 40 FF F7 F1 BD 02 20 84 F8 FC 01 ... -- CPU_WriteMem(1024 bytes @ 0x20000188)  returns 0x400 (0012ms, 1041ms total)
T0718 003:808 JLINK_WriteReg(R0, 0x08002800)  returns 0x00 (0000ms, 1041ms total)
T0718 003:808 JLINK_WriteReg(R1, 0x00000400)  returns 0x00 (0000ms, 1041ms total)
T0718 003:808 JLINK_WriteReg(R2, 0x20000188)  returns 0x00 (0000ms, 1041ms total)
T0718 003:808 JLINK_WriteReg(R3, 0x00000000)  returns 0x00 (0000ms, 1041ms total)
T0718 003:808 JLINK_WriteReg(R4, 0x00000000)  returns 0x00 (0000ms, 1041ms total)
T0718 003:808 JLINK_WriteReg(R5, 0x00000000)  returns 0x00 (0000ms, 1041ms total)
T0718 003:808 JLINK_WriteReg(R6, 0x00000000)  returns 0x00 (0000ms, 1041ms total)
T0718 003:808 JLINK_WriteReg(R7, 0x00000000)  returns 0x00 (0000ms, 1041ms total)
T0718 003:808 JLINK_WriteReg(R8, 0x00000000)  returns 0x00 (0000ms, 1041ms total)
T0718 003:808 JLINK_WriteReg(R9, 0x20000184)  returns 0x00 (0000ms, 1041ms total)
T0718 003:808 JLINK_WriteReg(R10, 0x00000000)  returns 0x00 (0000ms, 1041ms total)
T0718 003:808 JLINK_WriteReg(R11, 0x00000000)  returns 0x00 (0000ms, 1041ms total)
T0718 003:808 JLINK_WriteReg(R12, 0x00000000)  returns 0x00 (0000ms, 1041ms total)
T0718 003:808 JLINK_WriteReg(R13 (SP), 0x20001000)  returns 0x00 (0000ms, 1041ms total)
T0718 003:808 JLINK_WriteReg(R14, 0x20000001)  returns 0x00 (0000ms, 1041ms total)
T0718 003:808 JLINK_WriteReg(R15 (PC), 0x20000112)  returns 0x00 (0000ms, 1041ms total)
T0718 003:808 JLINK_WriteReg(XPSR, 0x01000000)  returns 0x00 (0000ms, 1041ms total)
T0718 003:808 JLINK_WriteReg(MSP, 0x20001000)  returns 0x00 (0000ms, 1041ms total)
T0718 003:808 JLINK_WriteReg(PSP, 0x20001000)  returns 0x00 (0000ms, 1041ms total)
T0718 003:808 JLINK_WriteReg(CFBP, 0x00000000)  returns 0x00 (0000ms, 1041ms total)
T0718 003:808 JLINK_SetBPEx(Addr = 0x20000000, Type = 0xFFFFFFF2)  returns 0x00000010 (0000ms, 1041ms total)
T0718 003:808 JLINK_Go() -- CPU_ReadMem(4 bytes @ 0xE0001000) (0005ms, 1046ms total)
T0718 003:813 JLINK_IsHalted()  returns FALSE (0001ms, 1047ms total)
T0718 003:992 JLINK_IsHalted() -- CPU_ReadMem(2 bytes @ 0x20000000)  returns TRUE (0007ms, 1053ms total)
T0718 003:999 JLINK_ReadReg(R15 (PC))  returns 0x20000000 (0000ms, 1046ms total)
T0718 003:999 JLINK_ClrBPEx(BPHandle = 0x00000010)  returns 0x00 (0000ms, 1046ms total)
T0718 003:999 JLINK_ReadReg(R0)  returns 0x00000000 (0000ms, 1046ms total)
T0718 003:999 JLINK_WriteMem(0x20000188, 0x0400 Bytes, ...) - Data: 00 EB 43 13 CA 68 C3 F8 14 2B 09 78 00 EB 41 10 ... -- CPU_WriteMem(1024 bytes @ 0x20000188)  returns 0x400 (0012ms, 1058ms total)
T0718 004:011 JLINK_WriteReg(R0, 0x08002C00)  returns 0x00 (0000ms, 1058ms total)
T0718 004:011 JLINK_WriteReg(R1, 0x00000400)  returns 0x00 (0000ms, 1058ms total)
T0718 004:011 JLINK_WriteReg(R2, 0x20000188)  returns 0x00 (0000ms, 1058ms total)
T0718 004:011 JLINK_WriteReg(R3, 0x00000000)  returns 0x00 (0000ms, 1058ms total)
T0718 004:011 JLINK_WriteReg(R4, 0x00000000)  returns 0x00 (0000ms, 1058ms total)
T0718 004:011 JLINK_WriteReg(R5, 0x00000000)  returns 0x00 (0000ms, 1058ms total)
T0718 004:011 JLINK_WriteReg(R6, 0x00000000)  returns 0x00 (0000ms, 1058ms total)
T0718 004:011 JLINK_WriteReg(R7, 0x00000000)  returns 0x00 (0000ms, 1058ms total)
T0718 004:011 JLINK_WriteReg(R8, 0x00000000)  returns 0x00 (0000ms, 1058ms total)
T0718 004:011 JLINK_WriteReg(R9, 0x20000184)  returns 0x00 (0000ms, 1058ms total)
T0718 004:011 JLINK_WriteReg(R10, 0x00000000)  returns 0x00 (0000ms, 1058ms total)
T0718 004:011 JLINK_WriteReg(R11, 0x00000000)  returns 0x00 (0000ms, 1058ms total)
T0718 004:011 JLINK_WriteReg(R12, 0x00000000)  returns 0x00 (0000ms, 1058ms total)
T0718 004:011 JLINK_WriteReg(R13 (SP), 0x20001000)  returns 0x00 (0000ms, 1058ms total)
T0718 004:011 JLINK_WriteReg(R14, 0x20000001)  returns 0x00 (0000ms, 1058ms total)
T0718 004:011 JLINK_WriteReg(R15 (PC), 0x20000112)  returns 0x00 (0000ms, 1058ms total)
T0718 004:011 JLINK_WriteReg(XPSR, 0x01000000)  returns 0x00 (0000ms, 1058ms total)
T0718 004:011 JLINK_WriteReg(MSP, 0x20001000)  returns 0x00 (0000ms, 1058ms total)
T0718 004:011 JLINK_WriteReg(PSP, 0x20001000)  returns 0x00 (0001ms, 1059ms total)
T0718 004:012 JLINK_WriteReg(CFBP, 0x00000000)  returns 0x00 (0000ms, 1059ms total)
T0718 004:012 JLINK_SetBPEx(Addr = 0x20000000, Type = 0xFFFFFFF2)  returns 0x00000011 (0000ms, 1059ms total)
T0718 004:012 JLINK_Go() -- CPU_ReadMem(4 bytes @ 0xE0001000) (0004ms, 1063ms total)
T0718 004:016 JLINK_IsHalted()  returns FALSE (0001ms, 1064ms total)
T0718 004:177 JLINK_IsHalted() -- CPU_ReadMem(2 bytes @ 0x20000000)  returns TRUE (0006ms, 1069ms total)
T0718 004:183 JLINK_ReadReg(R15 (PC))  returns 0x20000000 (0000ms, 1063ms total)
T0718 004:183 JLINK_ClrBPEx(BPHandle = 0x00000011)  returns 0x00 (0000ms, 1063ms total)
T0718 004:184 JLINK_ReadReg(R0)  returns 0x00000000 (0000ms, 1064ms total)
T0718 004:184 JLINK_WriteMem(0x20000188, 0x0400 Bytes, ...) - Data: D2 1C 92 08 03 F5 80 53 03 E0 1C 68 41 F8 04 4B ... -- CPU_WriteMem(1024 bytes @ 0x20000188)  returns 0x400 (0012ms, 1076ms total)
T0718 004:196 JLINK_WriteReg(R0, 0x08003000)  returns 0x00 (0000ms, 1076ms total)
T0718 004:196 JLINK_WriteReg(R1, 0x00000400)  returns 0x00 (0000ms, 1076ms total)
